! TOUCHSTONE file generated by CST MICROWAVE STUDIO
! Date and time: Wed May  4 10:48:37 2022
! Project name: Antenne_dipole.cst
! Parameters = {ls=100; ws=30; h=1.6; wl=0.2; i=0.5; l1=7.65306; e=0.035; L=40}
! Header version: 2018
! Port assignment regex: !\s*Touchstone port\s*([0-9]+)\s*=\s*(CST MWS port|CST DS port)\s*([0-9]+|Zmin|Zmax)\s*\(\"(.*)\"\)(\s*mode\s*([0-9]+))?.*
! Touchstone port assignment:
! Touchstone port 1 = CST MWS port 1 ("")
# GHz S MA R 50
0                      0.9999637              -0
0.004                  0.9999624      -0.1079646
0.008                  0.9999588      -0.2159228
0.012                  0.9999529      -0.3238684
0.016                  0.9999444      -0.4317951
0.02                   0.9999337      -0.5396966
0.024                  0.9999205       -0.647567
0.028                  0.9999051      -0.7553999
0.032                  0.9998875      -0.8631897
0.036                  0.9998676      -0.9709303
0.04                   0.9998456       -1.078616
0.044                  0.9998215       -1.186242
0.048                  0.9997954       -1.293802
0.052                  0.9997674       -1.401292
0.056                  0.9997375       -1.508706
0.06                   0.9997057        -1.61604
0.064                   0.999672       -1.723289
0.068                  0.9996369       -1.830449
0.072                  0.9996003       -1.937516
0.076                  0.9995623       -2.044487
0.08                   0.9995227       -2.151359
0.084                  0.9994821       -2.258128
0.088                  0.9994404       -2.364791
0.092                  0.9993974       -2.471347
0.096                  0.9993538       -2.577792
0.1                    0.9993093       -2.684126
0.104                  0.9992642       -2.790347
0.108                  0.9992185       -2.896455
0.112                  0.9991725       -3.002447
0.116                   0.999126       -3.108325
0.12                   0.9990795       -3.214089
0.124                  0.9990329       -3.319738
0.128                  0.9989865       -3.425274
0.132                  0.9989402       -3.530697
0.136                  0.9988943        -3.63601
0.14                   0.9988489       -3.741215
0.144                  0.9988039       -3.846314
0.148                  0.9987598       -3.951309
0.152                  0.9987164       -4.056204
0.156                  0.9986741       -4.161001
0.16                   0.9986329       -4.265706
0.164                  0.9985928       -4.370322
0.168                  0.9985537       -4.474853
0.172                  0.9985163       -4.579305
0.176                  0.9984803       -4.683682
0.18                    0.998446       -4.787989
0.184                  0.9984132       -4.892233
0.188                  0.9983824        -4.99642
0.192                  0.9983534       -5.100555
0.196                  0.9983264       -5.204646
0.2                    0.9983012       -5.308698
0.204                  0.9982782        -5.41272
0.208                  0.9982574       -5.516718
0.212                  0.9982388         -5.6207
0.216                  0.9982225       -5.724672
0.22                   0.9982084       -5.828644
0.224                  0.9981969       -5.932622
0.228                  0.9981876       -6.036614
0.232                  0.9981807       -6.140631
0.236                  0.9981763       -6.244677
0.24                   0.9981743       -6.348763
0.244                  0.9981748       -6.452896
0.248                  0.9981778       -6.557086
0.252                  0.9981832       -6.661339
0.256                  0.9981911       -6.765664
0.26                   0.9982015        -6.87007
0.264                  0.9982142       -6.974564
0.268                  0.9982292       -7.079157
0.272                  0.9982467       -7.183853
0.276                  0.9982664       -7.288663
0.28                   0.9982884       -7.393593
0.284                  0.9983125       -7.498651
0.288                  0.9983389       -7.603846
0.292                  0.9983671       -7.709182
0.296                  0.9983974       -7.814671
0.3                    0.9984296       -7.920315
0.304                  0.9984636       -8.026123
0.308                  0.9984993       -8.132101
0.312                  0.9985368       -8.238255
0.316                  0.9985756        -8.34459
0.32                   0.9986159       -8.451114
0.324                  0.9986576       -8.557831
0.328                  0.9987005       -8.664746
0.332                  0.9987443       -8.771861
0.336                  0.9987892       -8.879184
0.34                    0.998835       -8.986716
0.344                  0.9988815       -9.094463
0.348                  0.9989285       -9.202427
0.352                  0.9989761        -9.31061
0.356                  0.9990241       -9.419015
0.36                   0.9990721       -9.527646
0.364                  0.9991202       -9.636502
0.368                  0.9991683       -9.745587
0.372                  0.9992162       -9.854897
0.376                  0.9992638       -9.964437
0.38                   0.9993109       -10.07421
0.384                  0.9993574        -10.1842
0.388                  0.9994033       -10.29443
0.392                  0.9994481       -10.40488
0.396                  0.9994922       -10.51556
0.4                    0.9995351       -10.62646
0.404                  0.9995767       -10.73758
0.408                  0.9996171       -10.84893
0.412                  0.9996558       -10.96048
0.416                  0.9996931       -11.07225
0.42                   0.9997286       -11.18423
0.424                  0.9997624       -11.29642
0.428                  0.9997942       -11.40881
0.432                  0.9998242       -11.52139
0.436                   0.999852       -11.63417
0.44                   0.9998777       -11.74714
0.444                  0.9999011       -11.86028
0.448                  0.9999222       -11.97361
0.452                  0.9999409        -12.0871
0.456                  0.9999571       -12.20076
0.46                   0.9999707       -12.31458
0.464                  0.9999819       -12.42856
0.468                  0.9999904       -12.54268
0.472                  0.9999963       -12.65694
0.476                  0.9999995       -12.77134
0.48                           1       -12.88586
0.484                  0.9999979        -13.0005
0.488                  0.9999928       -13.11526
0.492                  0.9999852       -13.23012
0.496                  0.9999747       -13.34509
0.5                    0.9999617       -13.46015
0.504                  0.9999457        -13.5753
0.508                  0.9999272       -13.69052
0.512                  0.9999061       -13.80582
0.516                  0.9998823       -13.92119
0.52                   0.9998559       -14.03662
0.524                  0.9998272        -14.1521
0.528                  0.9997958       -14.26763
0.532                  0.9997622       -14.38321
0.536                  0.9997263       -14.49882
0.54                    0.999688       -14.61447
0.544                  0.9996476       -14.73014
0.548                  0.9996053       -14.84583
0.552                   0.999561       -14.96154
0.556                  0.9995147       -15.07727
0.56                   0.9994668         -15.193
0.564                  0.9994171       -15.30874
0.568                   0.999366       -15.42447
0.572                  0.9993135       -15.54021
0.576                  0.9992596       -15.65594
0.58                   0.9992046       -15.77167
0.584                  0.9991486       -15.88739
0.588                  0.9990917        -16.0031
0.592                  0.9990341        -16.1188
0.596                  0.9989759       -16.23448
0.6                    0.9989171       -16.35015
0.604                  0.9988581       -16.46581
0.608                  0.9987987       -16.58146
0.612                  0.9987395        -16.6971
0.616                  0.9986802       -16.81273
0.62                   0.9986214       -16.92836
0.624                  0.9985628       -17.04397
0.628                  0.9985048       -17.15959
0.632                  0.9984474       -17.27521
0.636                  0.9983909       -17.39083
0.64                   0.9983354       -17.50646
0.644                  0.9982808       -17.62211
0.648                  0.9982275       -17.73777
0.652                  0.9981756       -17.85346
0.656                  0.9981252       -17.96917
0.66                   0.9980764       -18.08493
0.664                  0.9980292       -18.20072
0.668                   0.997984       -18.31656
0.672                  0.9979407       -18.43246
0.676                  0.9978995       -18.54842
0.68                   0.9978604       -18.66446
0.684                  0.9978235       -18.78058
0.688                  0.9977891       -18.89678
0.692                   0.997757       -19.01309
0.696                  0.9977274        -19.1295
0.7                    0.9977003       -19.24603
0.704                   0.997676       -19.36268
0.708                  0.9976544       -19.47947
0.712                  0.9976353       -19.59641
0.716                  0.9976192       -19.71349
0.72                   0.9976058       -19.83076
0.724                  0.9975952       -19.94819
0.728                  0.9975874       -20.06581
0.732                  0.9975826       -20.18364
0.736                  0.9975804       -20.30167
0.74                   0.9975812       -20.41992
0.744                  0.9975849       -20.53841
0.748                  0.9975913       -20.65713
0.752                  0.9976005       -20.77611
0.756                  0.9976123       -20.89535
0.76                   0.9976269       -21.01486
0.764                  0.9976441       -21.13466
0.768                  0.9976638       -21.25476
0.772                  0.9976861       -21.37515
0.776                  0.9977106       -21.49587
0.78                   0.9977376        -21.6169
0.784                  0.9977667       -21.73827
0.788                   0.997798       -21.85999
0.792                  0.9978312       -21.98206
0.796                  0.9978663       -22.10449
0.8                    0.9979033       -22.22728
0.804                  0.9979418       -22.35046
0.808                  0.9979818       -22.47402
0.812                  0.9980232       -22.59798
0.816                  0.9980659       -22.72233
0.82                   0.9981096       -22.84709
0.824                  0.9981542       -22.97227
0.828                  0.9981996       -23.09786
0.832                  0.9982457       -23.22388
0.836                   0.998292       -23.35033
0.84                   0.9983387       -23.47721
0.844                  0.9983855       -23.60453
0.848                  0.9984321       -23.73229
0.852                  0.9984786        -23.8605
0.856                  0.9985247       -23.98915
0.86                   0.9985701       -24.11825
0.864                  0.9986147       -24.24781
0.868                  0.9986584       -24.37781
0.872                   0.998701       -24.50827
0.876                  0.9987423       -24.63919
0.88                   0.9987821       -24.77055
0.884                  0.9988202       -24.90237
0.888                  0.9988565       -25.03465
0.892                  0.9988908       -25.16737
0.896                  0.9989231       -25.30053
0.9                    0.9989529       -25.43414
0.904                  0.9989804        -25.5682
0.908                  0.9990052       -25.70269
0.912                  0.9990272       -25.83763
0.916                  0.9990464       -25.97298
0.92                   0.9990626       -26.10877
0.924                  0.9990754       -26.24498
0.928                  0.9990851        -26.3816
0.932                  0.9990915       -26.51863
0.936                  0.9990942       -26.65607
0.94                   0.9990933       -26.79391
0.944                  0.9990887       -26.93213
0.948                  0.9990804       -27.07074
0.952                  0.9990682       -27.20973
0.956                  0.9990521        -27.3491
0.96                   0.9990319       -27.48882
0.964                  0.9990077       -27.62889
0.968                  0.9989794       -27.76935
0.972                  0.9989468       -27.91011
0.976                  0.9989102       -28.05122
0.98                   0.9988694       -28.19263
0.984                  0.9988244       -28.33437
0.988                  0.9987753       -28.47644
0.992                  0.9987219       -28.61881
0.996                  0.9986644       -28.76145
1                      0.9986028       -28.90439
1.004                  0.9985371       -29.04761
1.008                  0.9984674        -29.1911
1.012                  0.9983937       -29.33483
1.016                  0.9983161       -29.47884
1.02                   0.9982347       -29.62312
1.024                  0.9981495       -29.76765
1.028                  0.9980607       -29.91239
1.032                  0.9979684       -30.05736
1.036                  0.9978726       -30.20254
1.04                   0.9977735       -30.34796
1.044                  0.9976713       -30.49361
1.048                  0.9975659       -30.63948
1.052                  0.9974577       -30.78554
1.056                  0.9973468       -30.93179
1.06                   0.9972332       -31.07825
1.064                  0.9971171       -31.22491
1.068                  0.9969987       -31.37179
1.072                  0.9968784       -31.51885
1.076                   0.996756       -31.66611
1.08                   0.9966319       -31.81356
1.084                  0.9965062        -31.9612
1.088                  0.9963791       -32.10904
1.092                  0.9962508       -32.25709
1.096                  0.9961216        -32.4053
1.1                    0.9959914       -32.55373
1.104                  0.9958608       -32.70239
1.108                  0.9957297       -32.85126
1.112                  0.9955984       -33.00029
1.116                   0.995467        -33.1496
1.12                   0.9953358        -33.2991
1.124                   0.995205       -33.44884
1.128                  0.9950745       -33.59885
1.132                  0.9949451       -33.74909
1.136                  0.9948165       -33.89958
1.14                    0.994689       -34.05033
1.144                  0.9945627       -34.20137
1.148                   0.994438       -34.35269
1.152                  0.9943148       -34.50431
1.156                  0.9941933       -34.65625
1.16                    0.994074       -34.80849
1.164                  0.9939567       -34.96108
1.168                  0.9938415       -35.11402
1.172                  0.9937288       -35.26732
1.176                  0.9936185         -35.421
1.18                   0.9935108       -35.57508
1.184                  0.9934059       -35.72956
1.188                  0.9933038       -35.88447
1.192                  0.9932044       -36.03982
1.196                  0.9931081       -36.19564
1.2                    0.9930148       -36.35192
1.204                  0.9929246       -36.50871
1.208                  0.9928375       -36.66601
1.212                  0.9927536       -36.82384
1.216                  0.9926729       -36.98222
1.22                   0.9925954       -37.14116
1.224                  0.9925209       -37.30071
1.228                  0.9924498       -37.46085
1.232                  0.9923816       -37.62162
1.236                  0.9923166       -37.78304
1.24                   0.9922547       -37.94513
1.244                  0.9921956        -38.1079
1.248                  0.9921395       -38.27137
1.252                  0.9920861       -38.43558
1.256                  0.9920356       -38.60053
1.26                   0.9919874       -38.76624
1.264                  0.9919417       -38.93274
1.268                  0.9918984       -39.10004
1.272                  0.9918572       -39.26816
1.276                  0.9918178       -39.43713
1.28                   0.9917803       -39.60695
1.284                  0.9917444       -39.77765
1.288                  0.9917099       -39.94924
1.292                  0.9916765       -40.12174
1.296                  0.9916441       -40.29517
1.3                    0.9916122       -40.46955
1.304                   0.991581        -40.6449
1.308                  0.9915501       -40.82121
1.312                   0.991519       -40.99852
1.316                  0.9914875       -41.17684
1.32                   0.9914556       -41.35618
1.324                  0.9914227       -41.53655
1.328                  0.9913887       -41.71796
1.332                  0.9913531       -41.90043
1.336                  0.9913159       -42.08397
1.34                   0.9912764        -42.2686
1.344                  0.9912347       -42.45432
1.348                  0.9911903       -42.64114
1.352                  0.9911426       -42.82906
1.356                  0.9910918       -43.01811
1.36                   0.9910373       -43.20827
1.364                  0.9909787       -43.39957
1.368                  0.9909159       -43.59201
1.372                  0.9908485       -43.78559
1.376                  0.9907759       -43.98032
1.38                   0.9906982        -44.1762
1.384                  0.9906148       -44.37323
1.388                  0.9905255       -44.57143
1.392                  0.9904298       -44.77079
1.396                  0.9903278        -44.9713
1.4                    0.9902188       -45.17298
1.404                  0.9901027       -45.37582
1.408                  0.9899792       -45.57983
1.412                   0.989848       -45.78498
1.416                  0.9897087       -45.99131
1.42                   0.9895612       -46.19879
1.424                  0.9894051       -46.40742
1.428                  0.9892403       -46.61721
1.432                  0.9890663       -46.82815
1.436                  0.9888832       -47.04023
1.44                   0.9886907       -47.25344
1.444                  0.9884885        -47.4678
1.448                  0.9882764       -47.68329
1.452                  0.9880542        -47.8999
1.456                  0.9878217       -48.11764
1.46                   0.9875789       -48.33649
1.464                  0.9873256       -48.55644
1.468                  0.9870615        -48.7775
1.472                  0.9867869       -48.99965
1.476                  0.9865012        -49.2229
1.48                   0.9862045       -49.44723
1.484                  0.9858969       -49.67264
1.488                   0.985578       -49.89913
1.492                   0.985248       -50.12668
1.496                  0.9849067        -50.3553
1.5                    0.9845543       -50.58498
1.504                  0.9841905       -50.81571
1.508                  0.9838156       -51.04749
1.512                  0.9834297        -51.2803
1.516                  0.9830323       -51.51417
1.52                   0.9826238       -51.74907
1.524                  0.9822044       -51.98501
1.528                   0.981774       -52.22198
1.532                  0.9813326       -52.45999
1.536                  0.9808805       -52.69902
1.54                   0.9804177       -52.93908
1.544                  0.9799444       -53.18019
1.548                  0.9794604       -53.42233
1.552                  0.9789665        -53.6655
1.556                  0.9784623       -53.90971
